!
! MAXIM INTEGRATED PRODUCTS
! MAX2641 1500MHz to 2500MHz SiGe Ultra-Low-Noise Amplifiers
!
!Table 2. MAX2641 Typical Scattering Parameters at Vcc=+3V, TA = +25oC 

! Freq  |S11|	<S11	|S21|	<S21	|S12|	<S12	|S22|	<S22
!(MHz)   Mag	Angle    Mag	Angle    Mag	Angle    Mag	Angle

# MHZ S MA R 50
1500	0.734	-75.5	4.397	-90.5	0.013	-80.3	0.535	17.7
1600	0.717	-80.3	4.209	-109.8	0.016	-91.9	0.514	8.6
1700	0.695	-85.3	4.193	-131.6	0.018	-116.5	0.513	-0.5
1800	0.678	-90.6	3.876	-150.0	0.021	-128.7	0.510	-10.6
1900	0.661	-96.6	3.801	-173.5	0.023	-150.6	0.493	-21.6
2000	0.646	-102.6	3.456	166.9	0.026	-166.6	0.470	-32.0
2100	0.632	-108.8	3.302	146.4	0.028	171.7	0.431	-43.4
2200	0.620	-114.0	2.981	123.6	0.029	150.7	0.403	-56.1
2300	0.610	-119.4	2.781	105.3	0.033	132.2	0.374	-69.4
2400	0.604	-124.6	2.430	82.9	0.032	111.2	0.338	-86.2
2500	0.603	-128.4	2.118	64.7	0.030	95.7	0.316	-98.3

!Table 4. MAX2641 Typical Noise Parameters at Vcc=+3V, TA = +25oC 

!Freq(MHz) FMIN(dB)  	|Topt|	<Topt	RN (ohm)
NOI RN
FREQ MHz
1500	1.02	0.43	44	12.4
1600	1.05	0.40	47	11.8
1700	1.08	0.38	50	11.3
1800	1.10	0.36	54	10.8
1900	1.14	0.32	58	10.3
2000	1.17	0.30	62	9.9
2100	1.20	0.28	66	9.4
2200	1.23	0.25	71	9.0
2300	1.27	0.22	77	8.6
2400	1.30	0.19	82	8.3
2500	1.34	0.17	91	8.0
